#Digilent WaveForms Impedance Analyzer
#Device Name: Geas_AD2
#Serial Number: SN:210321A68142
#Date Time: 
#Digilent WaveForms Impedance Analyzer Trace#Trace: Trace
#Start: 20 Hz
#Stop: 10000 Hz
#Steps: 1001
#Resistor: 100 Ω
#Average: 1
#ProbeResistance: 1.04e+06 Ω
#ProbeCapacitance: 4.3e-11 F
#Compensation:none
#Wavegen: Wavegen1
#Amplitude: 1 V
#Offset: 0 V
#Amplification: 1 X
#Settle: 0.01 s
#MinPeriods: 16
#Scale: Logarithmic
#Channel: Channel 1
#Range: 5.51406 V
#Offset: 8.41053e-05 V
#Attenuation: 1 X
#Channel: Channel 2
#Range: 5.42498 V
#Offset: 0.000116654 V
#Attenuation: 1 X

Frequency (Hz),Trace th (deg),Trace |Z| (Ohm),Trace Cs (F),Trace D (),Trace Q (),Trace Irms (A),Trace Ireal (A),Trace Iimag (A),Trace Val1 (V)
20.00000000000002,6.312332976489669,4.050362761068834,-0.01786931295587994,9.040045880400088,0.1106189076062236,0.006808978480995243,0.006767697364399807,0.0007486389908041094,0.0001877836796132413
20.12467917680646,6.355288648606857,4.053648636305529,-0.01762476485843182,8.97844488162124,0.1113778625569097,0.006808845598785816,0.006767002126282872,0.000753697957399422,0.0001879286846315781
20.25013559846934,6.391092654287675,4.054291840945273,-0.01741508881600058,8.927729963412416,0.1120105563338268,0.006808698190063832,0.006766383325710528,0.0007579101087365421,0.0001879503654807118
20.37637411030113,6.419169358832108,4.053472282778411,-0.0172352957499459,8.888354587858306,0.1125067626539138,0.006808777984069763,0.006766090405059463,0.0007612346989696246,0.0001879167765736262
20.50339958781974,6.464734766384311,4.057607832669292,-0.01699096264482146,8.82517757290673,0.1133121675726953,0.006808716784850479,0.006765422068451172,0.0007666084346121666,0.0001881051168941819
20.63121693693687,6.500734876152707,4.056914688556814,-0.01679545476596394,8.775886607967557,0.1139486008276483,0.006808645198482898,0.00676486792852663,0.0007708510546247249,0.0001880690289353617
20.75983109414748,6.541138996147031,4.056087053934948,-0.0165921288021195,8.721209139020569,0.1146629995978177,0.00680872446146959,0.006764401398302003,0.0007756303983626954,0.0001880350396910109
20.8892470267204,6.566951305727484,4.06182080532217,-0.01640161814712768,8.68662894779353,0.1151194561215842,0.006808368566219553,0.006763697719893752,0.0007786370703932293,0.000188281164482006
21.01946973289028,6.604289828788326,4.05752786718899,-0.01622540329502722,8.637083561562672,0.1157798223060232,0.006808440152266038,0.006763259969620975,0.0007830529294440332,0.0001880861253027034
21.1505042420505,6.643487209475308,4.058475515743462,-0.01602642265171743,8.585668171802364,0.1164731713350241,0.006808445473196321,0.006762727964594909,0.0007876802894407596,0.0001881303474710354
21.28235561494749,6.708885271103273,4.05981223743171,-0.01576738285150412,8.501216667282639,0.1176302215479992,0.006808366521897862,0.006761746078629854,0.0007953896307052158,0.0001881879465490117
21.41502894387616,6.6827390362223,4.066204243251824,-0.01570599799807255,8.534783077453014,0.1171675941760929,0.006808182278655534,0.00676192534671666,0.0007922824905486949,0.0001884740395392499
21.54852935287658,6.738910090012924,4.0650331279848,-0.01548364287269264,8.462990777003448,0.1181615372566998,0.006808252072771229,0.006761214676495877,0.0007989195107959813,0.0001884236199623902
21.68286199793187,6.781189993183507,4.065969355021927,-0.01528869895339684,8.409733720974055,0.118909829154992,0.00680825011342561,0.006760621345651831,0.0008039083453209403,0.0001884669077576455
21.81803206716735,6.81169054945852,4.069334519186886,-0.01511375646864497,8.37172288089128,0.1194497254899026,0.006808046548266579,0.006759990307909297,0.0008074830278939849,0.0001886116113582419
21.95404478105088,6.856934270417688,4.067388780687246,-0.0149286222266037,8.315958520802694,0.120250720046097,0.006807964512694355,0.006759269118092646,0.0008128110452649782,0.0001885168840938059
22.09090539259453,6.892019259942487,4.069365143031743,-0.01475380143062436,8.273216751176127,0.1208719691597394,0.006808140057068053,0.00675894440003451,0.0008169710116624315,0.0001886182120092422
22.2286191875574,6.939230780437553,4.072045196856335,-0.01455353846639887,8.216380840009554,0.1217080877179541,0.006807991113525871,0.006758121068756237,0.0008225221102683367,0.0001887341763210342
22.36719148464981,6.978490028652712,4.068769409602845,-0.0143939857523905,8.169701111156829,0.1224034987809242,0.006807981660544007,0.00675754650153646,0.0008271514794013812,0.0001885818240019023
22.50662763573871,6.996443793014348,4.073254519340132,-0.01425257314488683,8.148527571226969,0.1227215581292344,0.006807939159643257,0.006757244792413057,0.0008292637799944934,0.0001887873454759923
22.64693302605432,7.017403244868436,4.072787350472006,-0.01412379873694087,8.123945701170353,0.1230928955933245,0.006807807494775288,0.006756810304397382,0.0008317195418576695,0.000188758391767708
22.78811307439826,7.086516365876333,4.0729759806908,-0.01389944917068993,8.043912910640692,0.1243176065068003,0.00680793730925942,0.006755930945575508,0.0008398853882653354,0.0001887743331397663
22.93017323335265,7.114827482410392,4.07631614417117,-0.01374737894775708,8.011575370014441,0.1248193961630542,0.00680762244202766,0.006755202668884663,0.0008431845678688433,0.0001889116675226302
23.07311898949082,7.146959090220801,4.077396557595685,-0.01359749893419018,7.975182783005068,0.1253889756772694,0.006807374420905984,0.006754482649444972,0.0008469419370605766,0.0001889479693230437
23.21695586358915,7.162185505819481,4.07708437196919,-0.01348571124035396,7.958050631721453,0.1256589140076486,0.00680750238061941,0.006754384293157275,0.0008487528983686828,0.0001889406054488546
23.36168941084032,7.234948176893061,4.079156419464733,-0.01326134241628841,7.877171487812188,0.1269491214641235,0.006807416428016166,0.006753215703018272,0.0008573191313226373,0.0001890318548749193
23.50732522106787,7.232382465503537,4.079965518655698,-0.01318121992306931,7.879995862526138,0.1269036199315242,0.006807426936840373,0.006753264508933761,0.0008570180702853052,0.000189069933019654
23.65386891894206,7.314408079836656,4.083357997230138,-0.01294267980408543,7.790676500521578,0.1283585578136958,0.00680728030751058,0.006751885227633224,0.0008666666359619439,0.0001892189924074645
23.8013261641971,7.308875743213188,4.089980748277041,-0.01285133523729357,7.796638064696571,0.1282604106670069,0.006807021769521439,0.006751712438581275,0.0008659818228148145,0.0001895114885272787
23.94970265184978,7.348283954611523,4.087219455441565,-0.01271217865110998,7.7543670632539,0.1289595903627985,0.006806901556421593,0.006750995987399532,0.0008706101176359765,0.00018937685348921
24.09900411241935,7.427107559227348,4.090749028659908,-0.0124892990047256,7.671155951623056,0.1303584500571157,0.006806756227278561,0.006749647760099842,0.0008798780893820816,0.000189532299024498
24.24923631214891,7.453296506794785,4.090106140962316,-0.01237050039845458,7.643896630111334,0.1308233285181716,0.006806786008362373,0.006749274403267468,0.0008829670396092525,0.0001895041710320228
24.40040505322807,7.501235050767035,4.090094933479092,-0.01221577252260253,7.594489097542463,0.1316744269635721,0.006806828874092408,0.006748575770560785,0.0008886193730602644,0.0001895060385688888
24.55251617401707,7.527342496461999,4.095192841233747,-0.01208316639488528,7.567844819754058,0.1321380160160972,0.006806692862188757,0.006748035317422687,0.0008916765528976644,0.0001897346568544034
24.7055755492722,7.575180901275049,4.096339050338858,-0.0119295720552646,7.519496587603207,0.1329876260132387,0.006806370761174174,0.006746969177428581,0.0008972679964176839,0.0001897698003939606
24.85958909037281,7.649079797182543,4.097154641915151,-0.01173945908812156,7.445991896225168,0.1343004416251059,0.006806459524698553,0.006745894258314913,0.0009059811901985235,0.0001898125347316634
25.0145627455495,7.624279256149705,4.102045735352786,-0.01169049793566895,7.4705022205608,0.1338598089493549,0.006806435804058688,0.006746262266585367,0.0009030580187443732,0.0001900378041990014
25.17050250011389,7.66248699571197,4.098113012227055,-0.01157157687895889,7.432807267922934,0.1345386694359217,0.006806356595641234,0.0067455800566614,0.0009075460353067025,0.0001898511919184666
25.32741437668982,7.715032315463785,4.10125516522868,-0.01141328214827649,7.381573341069989,0.1354724736576343,0.006806276133420846,0.006744665182006104,0.0009137211757471759,0.0001899922647227423
25.48530443544587,7.758492761108307,4.105314163296939,-0.01126826916252998,7.339718772134499,0.136245002165006,0.006806251978057365,0.006743946220614285,0.0009188336967439187,0.0001901789495195709
25.6441787743295,7.80239348532173,4.104939428431547,-0.01113685277091097,7.297910693470312,0.1370255189467766,0.006805934487587883,0.006742925664357604,0.0009239576474523599,0.0001901438494234482
25.80404352930251,7.860234531663874,4.107069666249515,-0.01098121857012033,7.243535405510696,0.1380541329637494,0.006805906651284025,0.006741961899112983,0.0009307604938441376,0.0001902409674421661
25.96490487457805,7.906543288970126,4.109648808667366,-0.01084286112724773,7.200571287854732,0.1388778695499771,0.006805843843069196,0.006741145203757302,0.0009362007039640548,0.0001903569208002159
26.12676902285904,7.919214179986237,4.113182911182781,-0.01074931041749367,7.18890254870364,0.1391032905544572,0.006805835206266458,0.006740929440747684,0.0009376903165315937,0.0001905201351470024
26.28964222557812,7.946729043334845,4.111825468907996,-0.01064947765115284,7.163691179309912,0.139592840474222,0.006805717432410761,0.006740361714182061,0.0009409111179109278,0.0001904506676391186
26.45353077313916,7.971501014309267,4.114986532185745,-0.010542718141288,7.141141001654113,0.1400336444509874,0.006805700842607932,0.006739937845303453,0.0009438229709646583,0.000190596151895292
26.61844099516008,8.084957444278832,4.114709201655965,-0.01033202582480647,7.039614869557068,0.1420532257133152,0.006805585698408969,0.006737941681234252,0.0009571512935136378,0.0001905768577987769
26.78437926071741,8.127917956754398,4.120287965014661,-0.0102002753660673,7.001906755206723,0.142818240082444,0.006805414309492624,0.006737052441334727,0.0009621789472612518,0.0001908256320812102
26.95135197859228,8.127849237198001,4.11917998209614,-0.01013989306005077,7.001966756857962,0.1428170162362691,0.006805244181186887,0.006736885171651733,0.0009621468440716249,0.0001907647791314199
27.11936559751784,8.13022360974135,4.123636524811067,-0.01006326238809383,6.999894186107485,0.1428593023569806,0.006805120786676343,0.006736723135254803,0.0009624086035448534,0.0001909642422156431
27.2884266064284,8.211125156302773,4.125150262694825,-0.009899412908811427,6.92998726227359,0.144300409532343,0.006805245682385706,0.006735481111596161,0.0009719377515873285,0.0001910413551613498
27.45854153471001,8.259298140896545,4.125238072546111,-0.009780887678581589,6.889007156974318,0.1451587982438974,0.006805192747104854,0.006734609157194517,0.0009775928728669556,0.0001910424496356605
27.62971695245265,8.277384074546513,4.124059847150641,-0.009701971615720475,6.873744006713806,0.1454811233911632,0.006805268816840654,0.006734375508357341,0.0009797296473520649,0.0001909921550752308
27.80195947070397,8.32264483950588,4.126404725642843,-0.009584346384330263,6.835836076489091,0.1462878847313734,0.006805044342023422,0.006733377355071807,0.0009850166958540263,0.000191088143467722
27.97527574172463,8.389324948740668,4.127937554476357,-0.00944628805940663,6.780728448533647,0.1474767803474349,0.006805056962667688,0.00673223892636081,0.0009928541199714226,0.0001911598357173202
28.14967245924518,8.425094011579944,4.130970553119129,-0.009341331312473678,6.751524098960784,0.1481147049677158,0.006805056354223381,0.006731617181099304,0.0009970567242061359,0.0001913002560371225
28.32515635872465,8.439063251192282,4.1323515175152,-0.00926510536842853,6.74018537914671,0.1483638718741883,0.00680486601990612,0.006731185611213924,0.0009986700237113327,0.000191353502240906
28.50173421761061,8.492445593984502,4.133737647282052,-0.009147178766053005,6.697196515009578,0.1493162098138865,0.006804676966817724,0.006730065246343671,0.001004913131915775,0.0001914070528436424
28.67941285560098,8.512726277517835,4.136056238802049,-0.009063926832380116,6.681004752377929,0.1496780854173283,0.006804657319007274,0.006729689684781825,0.00100729239829375,0.0001915133060892621
28.85819913490735,8.508199639410307,4.1410224241771,-0.009001721452692929,6.684612102861788,0.149597311648328,0.006804456739415453,0.006729570867659559,0.001006731074182247,0.0001917319533720437
29.03809996052017,8.627258231809185,4.141694839101611,-0.008821978794409697,6.590982708103774,0.1517224432663851,0.006804497744887258,0.006727504925403074,0.001020718883362687,0.0001917653978457034
29.21912228047519,8.662874169745207,4.146591969298999,-0.008721239717241513,6.563470182698607,0.1523584281126184,0.006804219842888972,0.006726594394525502,0.001024858781443624,0.0001919764588453524
29.40127308612199,8.724567494610977,4.144171997230067,-0.008611416044634227,6.516340950058405,0.153460355691032,0.006804181059599039,0.006725448637372751,0.001032095207753289,0.0001918622332068077
29.58455941239393,8.760063227405565,4.150141615733959,-0.008511396623738857,6.489523310232764,0.1540945231559901,0.006803763765031541,0.006724395514032918,0.001036198022199492,0.0001921150412494967
29.76898833807984,8.780787866339855,4.150940885776656,-0.008437232368631309,6.473964959644274,0.1544648459226364,0.006803880416305833,0.006724135546543911,0.001038648097814967,0.0001921586294119976
29.95456698609741,8.812293857248632,4.15206266789852,-0.008352960813593479,6.450451948477065,0.1550278969578399,0.006803678902379012,0.006723364254397755,0.001042314592320278,0.0001921991744109299
30.14130252376842,8.862553710879668,4.156305501581902,-0.008246081452132067,6.413286210892635,0.155926301605182,0.006803536056189692,0.006722306203498818,0.001048189951427934,0.0001923874966075936
30.32920216309524,8.894892409045413,4.158244369363553,-0.008161631214049451,6.389592958888652,0.156504491981588,0.006803553320037606,0.006721730567689936,0.001051986670056924,0.0001924782199351048
30.5182731610398,8.957420307207691,4.159202678294699,-0.008053048597282541,6.344262598727097,0.1576227314740469,0.006803399101491551,0.006720426170406183,0.001059297607991131,0.00019251385060696
30.70852281980338,8.958556791072732,4.162299376247712,-0.007996196749958559,6.343444498619035,0.1576430597316174,0.00680322913906989,0.006720237262994853,0.001059404477876647,0.0001926475593115634
30.89995848710914,9.024647887395941,4.166552064968853,-0.007880885837699246,6.296220210383153,0.158825448695535,0.006803130991432376,0.006718913823461583,0.001067140252958588,0.0001928388262973081
31.09258755648539,9.061515460108843,4.163505256391057,-0.007806168457449497,6.270173956609431,0.1594852083722324,0.006803175924951153,0.00671827013707917,0.001071470499391,0.0001927003575818845
31.28641746755161,9.081097167552741,4.169548847344396,-0.007729997612050184,6.25642512421045,0.1598356857385388,0.00680284238618104,0.006717574189574542,0.001073713899874298,0.0001929611523528606
31.48145570630544,9.162257104732152,4.168512984641707,-0.007616524562488472,6.200061912189391,0.1612887119778576,0.006803108331518227,0.006716309072727016,0.001083270700230322,0.0001929282975209302
31.67770980541195,9.208227818017111,4.172959447738984,-0.00752384677870729,6.168573628127819,0.1621120311250144,0.006802921179898401,0.006715253013664606,0.001088629203346425,0.0001931234640000781
31.87518734449454,9.262087444452964,4.169570094036676,-0.007440172571946051,6.132075945176518,0.1630769104852001,0.006802990499463112,0.006714295115064881,0.001094952438967668,0.0001929705381580921
32.07389595042766,9.277640197740203,4.17933862315144,-0.007364537491516448,6.12161487369306,0.1633555884571219,0.006802631347299455,0.006713643186592251,0.001096717105904996,0.0001934022100353229
32.27384329763138,9.340683787893337,4.178150400156592,-0.007272015242050916,6.07956426920955,0.1644854722672448,0.00680246705503785,0.006712270265112432,0.001104076955181474,0.000193337885020156
32.47503710836776,9.354264692715949,4.181790384545669,-0.007210281878272097,6.070579239850935,0.1647289262671012,0.006802416602702355,0.006711958588098368,0.001105659779666974,0.0001935034496758295
32.67748515303924,9.458220659665836,4.18223194345352,-0.007086810651436411,6.00264980249191,0.1665930935342697,0.006802368835174887,0.006709894336962632,0.001117828142674604,0.0001935211639801251
32.88119525048851,9.443875975404728,4.182681771156855,-0.007052747375523275,6.011935112561288,0.1663357939294136,0.006802268494320999,0.006710075001282272,0.00111613177806153,0.0001935362687246118
33.08617526830062,9.502984023955763,4.189015898149769,-0.006955321137589913,5.973853076695029,0.167396149045105,0.00680208454923779,0.006708738568760194,0.001123023165838037,0.0001938188713878512
33.29243312310687,9.551334699771765,4.187948461081428,-0.006879314796925898,5.943049055711139,0.1682637970216689,0.006801895795502979,0.006707602341666024,0.001128652842532887,0.0001937587290086263
33.49997678089048,9.620878801121915,4.190744138142802,-0.006783208537302369,5.899280706595494,0.16951219135614,0.006801912932460811,0.006706244361621181,0.001136796421089434,0.0001938890501857933
33.70881425729428,9.623998603676302,4.191843858259438,-0.006737251603835886,5.897331910619195,0.16956820731072,0.006801922380787941,0.006706191761110045,0.001137163197383577,0.0001939404686505054
33.91895361793029,9.708065340702445,4.191923505782934,-0.006637955047828486,5.845286482977348,0.1710780135263176,0.006801752636847712,0.006704348730658484,0.001146972985986494,0.0001939344738905121
34.13040297869124,9.752520477398898,4.198334909110693,-0.006557020442214841,5.818123707324829,0.1718767166708801,0.00680165418257071,0.00670335975153193,0.00115215782808755,0.0001942254671344336
34.34317050606399,9.781970312163306,4.198607354382452,-0.006496547604512392,5.800264044531975,0.1724059443367445,0.006801560539003933,0.006702674372136205,0.001155587308187492,0.0001942327227228478
34.55726441744493,9.803257112908524,4.201543069382291,-0.006437915247807542,5.787420964360916,0.1727885367520395,0.006801182552185635,0.006701872106085003,0.001158013118161479,0.0001943469296014647
34.7726929814574,9.88707251286837,4.207218910214986,-0.006335766003524746,5.737384482380349,0.1742954482257595,0.0068010578959146,0.006700048119286729,0.001167794375232515,0.0001946023379927879
34.98946451827094,9.886089960548681,4.208810567564931,-0.006294751961855358,5.73796618450742,0.1742777785446022,0.006800916806600986,0.006699929143443437,0.001167655292946104,0.0001946678820301639
35.20758739992269,9.970762063237199,4.20935967753946,-0.006202351083763829,5.688254184422793,0.1758008639519813,0.006801012459683612,0.006698290460308586,0.001177571817814404,0.0001946987563791756
35.42707005064083,10.02808946735539,4.212866241722113,-0.006123944197935776,5.655068399960701,0.1768325207183965,0.00680097284997219,0.006697069874289841,0.001184266357260186,0.0001948586784250961
35.64792094716972,10.04031687545182,4.212559286779772,-0.006079111388880291,5.648038713210475,0.1770526107870066,0.006800876119978864,0.006696721733583637,0.001185678717970155,0.0001948389382742949
35.8701486190974,10.06715290160747,4.216983536933801,-0.006019188284647497,5.632669606060444,0.1775357104070253,0.006800621015820106,0.006695914470837099,0.00118877062549864,0.0001950289362376932
36.09376164918508,10.10573491565716,4.218935268935575,-0.005956538611454026,5.610715086082071,0.1782304010554017,0.006800422359618797,0.006694916873294287,0.001193244454788178,0.0001951078015356102
36.31876867369846,10.16953282621119,4.217886767673916,-0.005884348918256934,5.574773528929871,0.1793794841728681,0.006800376999651947,0.006693539410476097,0.001200690425463004,0.0001950567106658896
