#Digilent WaveForms Impedance Analyzer
#Device Name: Geas_AD2
#Serial Number: SN:210321A68142
#Date Time: 
#Digilent WaveForms Impedance Analyzer Trace#Trace: Trace
#Start: 20 Hz
#Stop: 2000 Hz
#Steps: 501
#Resistor: 10 Ω
#Average: 2
#ProbeResistance: 1.04e+06 Ω
#ProbeCapacitance: 4.3e-11 F
#Compensation:none
#Wavegen: Wavegen1
#Amplitude: 1 V
#Offset: 0 V
#Amplification: 1 X
#Settle: 0.01 s
#MinPeriods: 16
#Scale: Logarithmic
#ScopeC
#SChannel: 1 
#Range: 5.51415 V
#Offset: 0.000170477 V
#Attenuation: 1 X
#ScopeC
#SChannel: 2 
#Range: 5.42507 V
#Offset: -2.41231e-05 V
#Attenuation: 1 X

Frequency (Hz),Trace th (deg),Trace |Z| (Ohm)
20,4.883906201898752,3.61159092862936
20.18505772153369,4.934392388377084,3.612985671958536
20.37182776108234,4.979584379723356,3.613440797975428
20.56032596252947,5.026383841586558,3.614149252017857
20.75056831636025,5.067647869274669,3.614712519693438
20.94257096101799,5.116893730167251,3.615561708801052
21.13635018427317,5.153497292163648,3.616330564758357
21.33192242460516,5.201660278329551,3.616779997815131
21.5293042725967,5.257546267929679,3.617613725937515
21.72851247234131,5.297145646425008,3.618613329514734
21.9295639228637,5.34616626050758,3.618910627843285
22.13247567955333,5.394751767980308,3.620000995717095
22.33726495561123,5.442109955560706,3.620376025908441
22.54394912351021,5.494142838898708,3.621823291666817
22.75254571646862,5.537762059806193,3.622307121970209
22.96307242993766,5.598176288782299,3.622728570962591
23.17554712310252,5.645453480656719,3.624138548302637
23.38998782039743,5.696212187708343,3.624793499902467
23.6064127130346,5.744625781191041,3.625726204363856
23.8248401605475,5.79661932208975,3.62724991913396
24.04528869234827,5.848406837701202,3.627722849312953
24.26777700929955,5.89779008485254,3.628739592406003
24.49232398530098,5.946443504140253,3.62933508698565
24.71894866889021,6.007690219514267,3.629809821147648
24.94767028485886,6.058808413257743,3.630868648869164
25.17850823588335,6.109356300016794,3.631940876003821
25.41148210417084,6.15915303100045,3.632516360224419
25.64661165312043,6.221965045049088,3.633565723709556
25.88391682899973,6.277509294598302,3.634617346637197
26.12341776263683,6.339618342967278,3.635936311160833
26.36513477112815,6.39271178211262,3.636940556642226
26.60908835956183,6.455517072009598,3.637968340178934
26.85529922275729,6.51023395265884,3.638723177294247
27.10378824702073,6.565161680297472,3.640247892711787
27.35457651191699,6.627940430220061,3.640842387929551
27.6076852920577,6.681548560576541,3.642196561895194
27.86313605890606,6.741558742786126,3.643264577338347
28.12095048259827,6.803324003846467,3.644478493627984
28.38115043378184,6.861064867113963,3.645686304071259
28.64375798547086,6.920030232991663,3.646582959778906
28.90879541491854,6.990994976648113,3.648080980735364
29.17628520550696,7.056526653830102,3.649651052088118
29.44625004865437,7.122347900422977,3.650529231176729
29.71871284574014,7.184486229034597,3.6520388301387
29.99369671004747,7.247401505861326,3.653338047937789
30.27122496872416,7.310498901684139,3.654230432753091
30.55132116476145,7.376105820884863,3.655327211785198
30.83400905899118,7.439187867757537,3.657189192913408
31.11931263210149,7.509455718694099,3.658303020644569
31.40725608667105,7.574375013539215,3.659739125531057
31.69786384922227,7.640079368741888,3.661209802379652
31.99116057229338,7.714456590646421,3.662349610925198
32.28717113652972,7.785509354612298,3.663656821076247
32.58592065279445,7.858372084525135,3.665189872862349
32.88743446429863,7.930734777423735,3.667008455392117
33.19173814875121,7.999369212703174,3.668446464484029
33.49885752052874,8.072271207347415,3.670141714362217
33.80881863286528,8.144229667981136,3.671740984963179
34.12164778006247,8.217871586075349,3.673479642855396
34.43737149972014,8.291041707027606,3.674878280345059
34.75601657498751,8.365775790166246,3.676325027873843
35.07761003683522,8.437200561314325,3.677975964787396
35.40217916634842,8.513020291071216,3.679974450114368
35.72975149704101,8.593332251030557,3.681460090840277
36.06035481719138,8.674523041163328,3.683601392942674
36.39401717219967,8.755307927978308,3.685530318527911
36.73076686696692,8.831848692470102,3.687328926500053
37.07063246829622,8.916207886735569,3.688662985139045
37.41364280731601,8.996474836589396,3.691221313100065
37.75982698192587,9.07888937209465,3.692970200218196
38.10921435926495,9.165288952114411,3.695093891084622
38.46183457820317,9.244154646792033,3.697204501212407
38.81771755185557,9.325892361819397,3.698726367452457
39.1768934701198,9.410919116741256,3.701209618779072
39.53939280223722,9.499965129958708,3.703496852738946
39.90524629937759,9.589954667510499,3.705707991057686
40.27448499724777,9.680966784433146,3.707533734802344
40.64714021872444,9.760194626531598,3.710325979833743
41.02324357651131,9.853948278293531,3.712326145483912
41.40282697582085,9.946563681117686,3.714655749223384
41.78592261708079,10.03525308443616,3.717499397173897
42.17256299866579,10.13314216778645,3.720242125546987
42.56278091965424,10.22207040717929,3.722189860034798
42.95660948261069,10.31545646015126,3.725205832725601
43.3540820963939,10.40470438337785,3.727876755648841
43.75523247899106,10.50536210443148,3.730495408287485
44.16009466037799,10.60555053481022,3.732960678140362
44.56870298540606,10.70338567641747,3.735655099205179
44.98109211671561,10.80950828645148,3.738743093301833
45.39729703767643,10.90943257447772,3.741948320860212
45.81735305535545,11.00582149042937,3.744567220777959
46.24129580351188,11.11128425827165,3.748419713135707
46.66916124562004,11.20976702565511,3.751389555070844
47.10098567792018,11.31407064925572,3.754666953062066
47.53680573249752,11.42423778357834,3.75844758862965
47.97665838038979,11.52810990299183,3.761265641284468
48.42058093472355,11.64123808446907,3.764921805485273
48.86861105387943,11.75233391698771,3.768264351943909
49.32078674468678,11.86381161534722,3.772133993901685
49.7771463656478,11.97202811326265,3.77643739722715
50.23772863019159,12.09420944282081,3.779429236050163
50.70257260995814,12.20972807249315,3.782971150925837
51.1717177381129,12.32308198886738,3.787566996412187
51.64520381269192,12.43744816714556,3.791813972365798
52.1230709999779,12.55524702137754,3.795573868081333
52.60535983790763,12.67913065874201,3.800132290415815
53.09211123951078,12.78928365027502,3.804425045249537
53.58336649638063,12.91874998086356,3.809217428611584
54.07916728217687,13.04222448312276,3.813627997782592
54.57955565616081,13.16195098886347,3.81816419240429
55.08457406676332,13.29122733179508,3.82278639208534
55.59426535518577,13.41516570687912,3.827870220682559
56.10867275903426,13.53951968670892,3.83303579105609
56.62783991598758,13.66777879805512,3.838356839740464
57.15181086749893,13.79876795553346,3.843680227141864
57.68063006253212,13.92782479771034,3.849291149678039
58.21434236133211,14.05950779549193,3.854741716461729
58.75299303923062,14.19451603975168,3.860468591472143
59.29662779048684,14.32425687809485,3.866435846222953
59.84529273216378,14.46211209336769,3.87171942597126
60.39903440804032,14.593519219295,3.8781151243728
60.95789979255966,14.73539520680151,3.884307693072025
61.52193629481416,14.87574784052346,3.89027639268433
62.09119176256711,15.01762880660057,3.896583509445626
62.66571448631171,15.16008927475293,3.902789525353889
63.24555320336759,15.30045675029869,3.908880340734967
63.83075710201523,15.44435519463883,3.915616893179693
64.42137582566869,15.59369605919346,3.922292650837059
65.01745947708687,15.7409512956018,3.929217955270365
65.61905862262381,15.89526239151268,3.935766012456244
66.22622429651823,16.04169041233976,3.942983433790737
66.83900800522285,16.19827220491308,3.950567628130836
67.45746173177378,16.3521654109352,3.957957991605697
68.08163794020018,16.51114068370811,3.965677887798779
68.71158957997493,16.67115539932474,3.973537411148752
69.34737009050633,16.82794320596926,3.981394688319121
69.98903340567146,16.99657164936904,3.989420699640262
70.6366339583914,17.15517165007612,3.99840683376229
71.29022668524885,17.32695318105044,4.007459742391762
71.94986703114847,17.49015977964614,4.015633925731026
72.61561095402028,17.66865750517507,4.025200354466152
73.28751492956665,17.83598735609195,4.034535292472756
73.96563595605325,18.01882016369856,4.044157044883972
74.65003155914413,18.1894791263751,4.054182625592325
75.34075979678178,18.3748479577862,4.064804087255292
76.03787926411225,18.55557245916849,4.075574594548531
76.74144909845576,18.74307214948749,4.085972839764613
77.45152898432345,18.92264243443314,4.097038473815019
78.16817915848043,19.11552055734366,4.108844828754219
78.89146041505569,19.31103332846061,4.120871061189719
79.62143411069947,19.50012132524696,4.132848839538354
80.358162169788,19.69848323783525,4.145801602128287
81.10170708967679,19.89776881004383,4.158462448407813
81.85213194600219,20.09593923080163,4.171850143727597
82.6095003980323,20.30144434158683,4.186172007374773
83.37387669406709,20.50535468485357,4.200689782174101
84.14532567688885,20.71448236506371,4.215280797073025
84.9239127892626,20.92197381914174,4.230477995610255
85.70970407948793,21.13173177673848,4.246563164888602
86.50276620700176,21.34722747727519,4.262420059466043
87.30316644803322,21.56176118256651,4.279782089453764
88.11097270131069,21.77524426634562,4.296903766175102
88.92625349382178,21.99435716524042,4.315017305575244
89.74907798662646,22.22419660043351,4.33392192177581
90.57951598072418,22.44483821809693,4.353329436529317
91.41763792297505,22.67733688292047,4.372688811081828
92.26351491207591,22.90591258084312,4.393777840637183
93.11721870459182,23.13136576711154,4.415468247020626
93.97882172104312,23.37107422083768,4.437581960177266
94.84839705204897,23.60265141541437,4.461788149240677
95.7260184645277,23.83908168832055,4.485221031826979
96.61176040795456,24.0745339801904,4.510165594984078
97.50569802067726,24.31888321535516,4.536227895369164
98.40790713629018,24.56042676545495,4.563390954270386
99.3184642900672,24.80363325338229,4.591480782904221
100.2374467254544,25.04944450348042,4.620549873590639
101.1649324006228,25.29285674190487,4.65103268469956
102.1009999950812,25.53969074663656,4.682945865351853
103.0457289163513,25.79048420923248,4.716006939284394
103.9991993067032,26.03961012947995,4.749976242857576
104.9614920499545,26.2918581650028,4.785622880842863
105.9326887783316,26.54638698421369,4.822945371773755
106.9128718793943,26.78340573629055,4.86213653354582
107.9021245030255,27.02955493834544,4.903336497802647
108.9005305684842,27.27599229899323,4.946514860754837
109.9081747715249,27.53221626363332,4.99159567551822
110.9251425915821,27.77382134128319,5.038426691137972
111.951520299022,27.87940170945097,5.082396629188509
112.9873949624605,28.10657358538491,5.127536927860227
114.0328544561495,28.34710796223066,5.179581585479652
115.0879874674314,28.59028389690965,5.23382135029205
116.1528835042624,28.8126083643256,5.29111223899068
117.2276329028058,29.03729341963274,5.351458757399834
118.3123268350948,29.25423449722392,5.414933372417921
119.4070573167674,29.46066270392695,5.482275631484202
120.5119172148716,29.64936015192217,5.554236832734679
121.6270002557436,29.84294256830314,5.627387017051046
122.7524010329589,30.01559435656296,5.706517732166224
123.8882150153563,30.19657349208085,5.78909548813315
125.0345385551372,30.33531753825698,5.878108832916427
126.1914688960387,30.46448948255184,5.971177452715604
127.3591041815832,30.56976475106815,6.068938099678571
128.5375434634039,30.66874856348873,6.172384692451929
129.7268867096477,30.72154630673421,6.280933709104554
130.927234813455,30.78117580028962,6.396504572968556
132.1386896015191,30.78785144200315,6.520933429382758
133.3613538427244,30.75773337649369,6.651245130604505
134.5953312568635,30.69848307682846,6.789026673390122
135.8407265234369,30.58461152234137,6.936049163457287
137.0976452905323,30.42497382505609,7.087761012191108
138.3661941837873,30.20385266048752,7.250998035510065
139.6464808154342,29.93952769918706,7.423095487412175
140.9386137934293,29.59227311064956,7.603132876796135
142.2427027306658,29.18451547078494,7.793887258038827
143.5588582542723,28.68102701458593,7.996422207863646
144.887192014998,28.10033087792127,8.204867218840073
146.2278166966834,27.39783083176803,8.426468458300269
147.5808460258201,26.61254331749599,8.654537203089861
148.9463947811978,25.71781654162819,8.889443514698627
150.3245788036411,24.69760156392283,9.131776161637815
151.7155150058367,23.55656848341745,9.380876501227256
153.1193213822512,22.27864343967,9.635471528214959
154.5361170191404,20.85979533137461,9.888951718987624
155.9660221046517,19.31184467870241,10.143377988768
157.4091579390197,17.59979747562374,10.39153596059999
158.8656469448563,15.72813491941348,10.63229773177338
160.3356126775358,13.70353435544062,10.85567189689148
161.8191798356764,11.55397663161609,11.05672645399015
163.3164742717184,9.285509111055635,11.23374722085618
164.8276230026004,6.92773643501945,11.37521313085143
166.3527542205342,4.454587792979391,11.48051642980181
167.8919973038795,1.933439393950256,11.54277630484344
169.4454828281193,-0.6095719863618171,11.55699026163724
171.0133425769367,-3.110500888963148,11.54253408726675
172.595709553394,-5.624449970569879,11.47673348025427
174.1927179912161,-8.091734360604882,11.37093640286315
175.8045033661768,-10.48118647177497,11.22616874564022
177.4312024075922,-12.74607093980977,11.04609670051414
179.0729531099188,-14.84267173829067,10.84662582083365
180.7298947444603,-16.84230929124051,10.62355263389429
182.4021678711819,-18.6958546167458,10.38294423130257
184.0899143506342,-20.38503475921567,10.13050210931492
185.7932773559872,-21.94779545011221,9.875394946627084
187.512401385176,-23.34366230559152,9.614384506167744
189.2474322731586,-24.60598338703463,9.356317799302486
190.9985172042872,-25.7143300628336,9.100518962027703
192.7658047247941,-26.68142429552011,8.849369997626912
194.549444755393,-27.51772623044983,8.606028680560806
196.3495886039969,-28.22159042006085,8.37637488999264
198.1663889785535,-28.84807865914377,8.156886926956194
200,-29.37274214472774,7.946450721185492
201.8505772153369,-29.77518240277533,7.744218156586382
203.7182776108234,-30.13360300910164,7.55410121262486
205.6032596252947,-30.40478685768777,7.375436526430577
207.5056831636025,-30.62867059657457,7.205795907100294
209.4257096101799,-30.78364107508486,7.041412792275382
211.3635018427317,-30.89615595547163,6.889007540195194
213.3192242460516,-30.96506716978058,6.74385670910178
215.293042725967,-30.97087921837409,6.605906267746633
217.2851247234131,-30.90212473352631,6.4808358868378
219.295639228637,-30.85549042072653,6.362734496531183
221.3247567955333,-30.79413187198968,6.241946884283988
223.3726495561122,-30.72286200992059,6.133761830710674
225.4394912351021,-30.5765297885695,6.027525614250409
227.5254571646862,-30.44433546534985,5.930841704814106
229.6307242993766,-30.30004436968151,5.831905516866287
231.7554712310252,-30.12842063138465,5.740605520333076
233.8998782039742,-29.9427413381386,5.652797256667329
236.064127130346,-29.74152675249165,5.566888370741859
238.248401605475,-29.53501243542872,5.488715877557555
240.4528869234826,-29.29317460582457,5.409434357836182
242.6777700929955,-29.02266844420684,5.333751123198949
244.9232398530098,-28.71939434481557,5.264325612730324
247.1894866889022,-28.4246446251049,5.196849854024933
249.4767028485886,-28.11913145100099,5.131351839278119
251.7850823588335,-27.78105021024391,5.072257085746892
254.1148210417084,-27.41877230053467,5.015920409884116
256.4661165312044,-27.10163163834759,4.966421433617182
258.8391682899972,-26.77827643071441,4.91535354513092
261.2341776263684,-26.46677189877396,4.870627255022707
263.6513477112815,-26.18897840097884,4.823793580966403
266.0908835956183,-25.90672103420704,4.780277815861427
268.5529922275726,-25.60802019050173,4.736232719638745
271.0378824702071,-25.32113931114132,4.693647912500229
273.5457651191697,-25.00560453081908,4.652520805924032
276.0768529205769,-24.67251013766404,4.611614138069174
278.6313605890606,-24.33723797292631,4.571726928875438
281.2095048259827,-23.99959172662183,4.534801478792757
283.8115043378183,-23.64753136392977,4.498239175160409
286.4375798547086,-23.2881045869673,4.463874983085836
289.0879541491854,-22.92807194359792,4.432539071439924
291.7628520550696,-22.56189122897189,4.401697606386965
294.4625004865437,-22.20377485510967,4.372955448347234
297.1871284574013,-21.83250374404144,4.346599889134898
299.9369671004746,-21.46452693093224,4.319945851222276
302.7122496872416,-21.11795513293747,4.296061541162698
305.5132116476145,-20.75325790145467,4.272171154648229
308.3400905899118,-20.40109958906282,4.250280542174895
311.1931263210149,-20.03431230001335,4.228414763008752
314.0725608667105,-19.69040879425969,4.2094041633372
316.9786384922227,-19.34637257143237,4.18960718008341
319.9116057229338,-19.00893685465895,4.172198207256934
322.8717113652972,-18.67163569761931,4.155662734566839
325.8592065279445,-18.34397207559835,4.139942466085017
328.8743446429863,-18.03549266845632,4.125516174046846
331.9173814875121,-17.72343718237277,4.109790141867547
334.9885752052875,-17.43012121904267,4.096202075074576
338.0881863286529,-17.11178231744842,4.081363869633933
341.2164778006247,-16.81824023956048,4.06793243971244
344.3737149972014,-16.5179723325028,4.053880600122004
347.5601657498751,-16.22653921005049,4.041386344945594
350.7761003683522,-15.92678392523059,4.02854561657173
354.0217916634842,-15.629736554541,4.016573633073785
357.2975149704101,-15.33505413065377,4.005033177279757
360.6035481719138,-15.02750650549169,3.994430454526972
363.9401717219967,-14.73572257745857,3.984124382963056
367.3076686696693,-14.44320618939935,3.974718358820124
370.7063246829622,-14.14831755354952,3.966156373908694
374.1364280731601,-13.86707666601363,3.957184846922261
377.5982698192587,-13.59749089455603,3.949678458346079
381.0921435926495,-13.3132501191547,3.942065736499155
384.6183457820317,-13.03372938183285,3.934715431057204
388.1771755185557,-12.77269090410529,3.927746516401099
391.768934701198,-12.50162020337001,3.92055499342514
395.3939280223722,-12.23334557396107,3.915657061560841
399.052462993776,-11.96903412220357,3.909872778026104
402.7448499724777,-11.70514613490229,3.905610899218463
406.4714021872444,-11.44494844680417,3.900254828333367
410.2324357651132,-11.19962322749327,3.897977347266464
414.0282697582085,-10.96128692369158,3.895690738769216
417.859226170808,-10.74792207635097,3.890386369574106
421.725629986658,-10.56063676458667,3.887810209418562
425.6278091965425,-10.34016819889763,3.882038469901035
429.5660948261068,-10.1246403398119,3.876795871287065
433.540820963939,-9.916467528197504,3.872606838896981
437.5523247899106,-9.693983323531032,3.867945120296616
441.6009466037801,-9.459394247994295,3.863441177866671
445.6870298540608,-9.234975410143548,3.860530131066281
449.8109211671563,-9.018610950672171,3.856760683864476
453.9729703767645,-8.786787152563882,3.854769374104178
458.1735305535547,-8.574845650864717,3.851367113742238
462.4129580351191,-8.359831790988448,3.849565731458174
466.6916124562007,-8.154765404758891,3.846813601520589
471.009856779202,-7.945425739458306,3.844199728811799
475.3680573249752,-7.74016703240209,3.841934099695755
479.766583803898,-7.528298149478418,3.840015750265189
484.2058093472355,-7.332758296915117,3.838457338251454
488.6861105387943,-7.119029463125243,3.837321539285016
493.2078674468677,-6.927485715432198,3.83706837875804
497.7714636564781,-6.725187787940428,3.83539749037577
502.3772863019159,-6.535689466294801,3.834715364034824
507.0257260995814,-6.34438873348163,3.833879569485036
511.7171773811291,-6.161114737092871,3.833388539961472
516.4520381269192,-5.970369177688696,3.833743461302245
521.230709999779,-5.782766522209404,3.833000112313032
526.0535983790763,-5.604401419577903,3.833009560905187
530.9211123951078,-5.422171081342985,3.832986895188871
535.8336649638062,-5.242484313438903,3.833526738443219
